T43F0 5126:211 SEGGER J-Link V6.48a Log File (0000ms, 64301ms total)
T43F0 5126:211 DLL Compiled: Jul 30 2019 15:16:09 (0000ms, 64301ms total)
T43F0 5126:211 Logging started @ 2020-03-09 22:20 (0000ms, 64301ms total)
T43F0 5126:220 JLINK_ExecCommand("Device = AT91SAM4S8B", ...). Device "ATSAM4S8B" selected.  returns 0x00 (0002ms, 64303ms total)
T43F0 5126:222 JLINK_TIF_Select(JLINKARM_TIF_SWD)  returns 0x00 (0001ms, 64304ms total)
T43F0 5126:223 JLINK_SetSpeed(4000) (0000ms, 64304ms total)
T43F0 5126:223 JLINK_ResetPullsRESET(OFF) (0000ms, 64304ms total)
T43F0 5126:223 JLINK_Connect() >0x10B TIF>Found SW-DP with ID 0x2BA01477 >0x0D TIF> >0x28 TIF> >0x0D TIF> >0x28 TIF> >0x0D TIF> >0x28 TIF> >0x0D TIF> >0x28 TIF> >0x0D TIF> >0x21 TIF> >0x0D TIF> >0x28 TIF>Scanning AP map to find all available APs >0x0D TIF> >0x28 TIF> >0x0D TIF> >0x21 TIF> >0x0D TIF> >0x21 TIF> >0x0D TIF> >0x28 TIF> >0x0D TIF> >0x21 TIF> >0x0D TIF> >0x21 TIF>AP[1]: Stopped AP scan as end of AP map has been reachedAP[0]: AHB-AP (IDR: 0x24770011)
Iterating through AP map to find AHB-AP to use >0x42 TIF> >0x28 TIF> >0x0D TIF> >0x28 TIF> >0x0D TIF> >0x21 TIF> >0x0D TIF> >0x21 TIF> >0x42 TIF> >0x28 TIF> >0x0D TIF> >0x28 TIF> >0x0D TIF> >0x28 TIF> >0x0D TIF> >0x0D TIF> >0x21 TIF> >0x0D TIF> >0x21 TIF>AP[0]: Core foundAP[0]: AHB-AP ROM base: 0xE00FF000 >0x0D TIF> >0x28 TIF> >0x0D TIF> >0x28 TIF> >0x0D TIF> >0x28 TIF> >0x0D TIF> >0x0D TIF> >0x21 TIF> >0x0D TIF> >0x21 TIF>CPUID register: 0x410FC241. Implementer code: 0x41 (ARM)
Found Cortex-M4 r0p1, Little endian. -- Max. mem block: 0x00001700 -- CPU_ReadMem(4 bytes @ 0xE000EDF0) -- CPU_WriteMem(4 bytes @ 0xE000EDF0) -- CPU_ReadMem(4 bytes @ 0xE0002000)FPUnit: 6 code (BP) slots and 2 literal slots -- CPU_ReadMem(4 bytes @ 0xE000EDFC) -- CPU_WriteMem(4 bytes @ 0xE000EDFC) -- CPU_ReadMem(4 bytes @ 0xE0001000) -- CPU_WriteMem(4 bytes @ 0xE0001000) -- CPU_ReadMem(4 bytes @ 0xE000ED88) -- CPU_WriteMem(4 bytes @ 0xE000ED88) -- CPU_ReadMem(4 bytes @ 0xE000ED88)
 -- CPU_WriteMem(4 bytes @ 0xE000ED88)CoreSight components:ROMTbl[0] @ E00FF000 -- CPU_ReadMem(16 bytes @ 0xE00FF000) -- CPU_ReadMem(16 bytes @ 0xE000EFF0) -- CPU_ReadMem(16 bytes @ 0xE000EFE0)ROMTbl[0][0]: E000E000, CID: B105E00D, PID: 000BB000 SCS -- CPU_ReadMem(16 bytes @ 0xE0001FF0) -- CPU_ReadMem(16 bytes @ 0xE0001FE0)ROMTbl[0][1]: E0001000, CID: B105E00D, PID: 003BB002 DWT -- CPU_ReadMem(16 bytes @ 0xE0002FF0) -- CPU_ReadMem(16 bytes @ 0xE0002FE0)
ROMTbl[0][2]: E0002000, CID: B105E00D, PID: 002BB003 FPB -- CPU_ReadMem(16 bytes @ 0xE0000FF0) -- CPU_ReadMem(16 bytes @ 0xE0000FE0)ROMTbl[0][3]: E0000000, CID: B105E00D, PID: 003BB001 ITM -- CPU_ReadMem(16 bytes @ 0xE00FF010) -- CPU_ReadMem(16 bytes @ 0xE0040FF0) -- CPU_ReadMem(16 bytes @ 0xE0040FE0)ROMTbl[0][4]: E0040000, CID: B105900D, PID: 000BB9A1 TPIU  returns 0x00 (0123ms, 64427ms total)
T43F0 5126:346 JLINK_Halt()  returns 0x00 (0003ms, 64430ms total)
T43F0 5126:349 JLINK_BeginDownload(Flags = 0x00) (0000ms, 64430ms total)
T43F0 5126:349 JLINK_WriteMem(0x400E0A04, 0x0004 Bytes, ...) - Data: 0B 01 00 5A -- CPU_WriteMem(4 bytes @ 0x400E0A04)  returns 0x04 (0001ms, 64431ms total)
T43F0 5126:350 JLINK_EndDownload()  returns 0x00 (0000ms, 64431ms total)
T43F0 5126:350 JLINK_ReadMemHW(0x400E0A08, 0x0004 Bytes, ...) -- CPU_ReadMem(4 bytes @ 0x400E0A08) - Data: 01 00 00 00  returns 0x00 (0000ms, 64431ms total)
T43F0 5126:350 JLINK_SetResetType(JLINKARM_CM3_RESET_TYPE_NORMAL)  returns JLINKARM_CM3_RESET_TYPE_NORMAL (0000ms, 64431ms total)
T43F0 5126:350 JLINK_Reset() -- CPU_ReadMem(16 bytes @ 0x20000000) -- CPU_WriteMem(16 bytes @ 0x20000000) -- CPU_ReadMem(4 bytes @ 0xE000EDFC) -- CPU_WriteMem(4 bytes @ 0xE000EDFC) -- CPU_ReadMem(4 bytes @ 0xE0001000) -- CPU_WriteMem(4 bytes @ 0xE000EDFC) -- CPU_WriteMem(16 bytes @ 0x20000000) -- CPU_WriteMem(4 bytes @ 0xE0002000) -- CPU_ReadMem(4 bytes @ 0xE000EDFC) -- CPU_ReadMem(4 bytes @ 0xE0001000) (0024ms, 64455ms total)
T43F0 5126:375 JLINK_JTAG_GetDeviceID(DeviceIndex = 0)  returns 0x00 (0000ms, 64455ms total)
T43F0 5126:375 JLINK_ReadMemU32(0x400E0740, 0x0001 Items, ...) -- CPU_ReadMem(4 bytes @ 0x400E0740) - Data: E0 0A 9C 28  returns 1 (0001ms, 64456ms total)
T43F0 5126:376 JLINK_ReadMemU32(0x400E0744, 0x0001 Items, ...) -- CPU_ReadMem(4 bytes @ 0x400E0744) - Data: 00 00 00 00  returns 1 (0000ms, 64456ms total)
T3E9C 5126:385 JLINK_IsHalted()  returns TRUE (0000ms, 64456ms total)
T3E9C 5126:385 JLINK_GetMOEs(...) -- CPU_ReadMem(4 bytes @ 0xE000ED30)  returns 0x01 (0000ms, 64456ms total)
T3E9C 5126:385 JLINK_ReadReg(R15 (PC))  returns 0xFFFFFFFE (0000ms, 64456ms total)
T43F0 5126:391 JLINK_BeginDownload(Flags = 0x00) (0000ms, 64456ms total)
T43F0 5126:391 JLINK_WriteMem(0x00400000, 0x4000 Bytes, ...) - Data: 28 02 01 20 5D 2A 40 00 25 2B 40 00 25 2B 40 00 ... -- Read from flash cache (16384 bytes @ 0x00400000)  returns 0x4000 (0001ms, 64457ms total)
T43F0 5126:392 JLINK_WriteMem(0x00404000, 0x52E4 Bytes, ...) - Data: 08 F1 08 08 80 2D 00 F0 15 83 0A 9B 0E 9A 9F 1A ... -- Read from flash cache (21220 bytes @ 0x00404000)  returns 0x52E4 (0000ms, 64457ms total)
T43F0 5126:392 JLINK_WriteMem(0x004092E4, 0x0008 Bytes, ...) - Data: 24 A1 FF 7F 01 00 00 00  returns 0x08 (0000ms, 64457ms total)
T43F0 5126:392 JLINK_WriteMem(0x004092EC, 0x09C0 Bytes, ...) - Data: BF F3 5F 8F 01 38 FB D1 70 47 00 00 00 09 3D 00 ... -- Read from flash cache (2496 bytes @ 0x004092EC)  returns 0x9C0 (0000ms, 64457ms total)
T43F0 5126:397 JLINK_EndDownload() -- CPU_ReadMem(4 bytes @ 0xE000ED90) -- CPU_ReadMem(4 bytes @ 0xE000ED94) -- -------------------------------------- -- Start of determining dirty areas in flash cache -- End of determining dirty areas -- Start of preparing flash programming -- Calculating RAM usage -- RAM usage = 3924 Bytes -- Preserving CPU registers -- Preparing memory -- Preparing target -- Downloading RAMCode -- Checking target RAM -- Preparing RAMCode -- End of preparing flash programming
 -- CPU is running at 90000 kHz. -- Start of comparing flash -- CRC check was estimated as fastest method -- Comparing range 0x400000 - 0x403FFF (32 Sectors, 16 KB), using multi-block CRC calculation -- CRC does not match for sectors 0-31 -- Comparing range 0x404000 - 0x409FFF (6 Sectors, 24 KB), using multi-block CRC calculation -- CRC does not match for sectors 0-5 -- End of comparing flash -- Start of erasing sectors -- End of erasing sectors -- Start of flash programming
 -- Programming range 0x00400000 - 0x00403FFF ( 32 Sectors, 16 KB) -- Programming range 0x00404000 - 0x00409FFF (  6 Sectors, 24 KB) -- End of flash programming -- 0x400000 - 0x403FFF ( 32 Sectors, 16 KB) -- 0x404000 - 0x409FFF (  6 Sectors, 24 KB) -- Start of verifying flash -- Checksum calculation was estimated as fastest method -- Checksum calculation was estimated as fastest method -- End of verifying flash -- Start of restoring -- Restoring RAMCode -- Restore target -- Restore memory
 -- Restoring CPU registers -- End of restoring -- Bank 0 @ 0x00400000: 2 ranges affected (40960 bytes) -- Total time needed: 0.575s (Prepare: 0.216s, Compare: 0.009s, Erase: 0.000s, Program: 0.289s, Verify: 0.002s, Restore: 0.056s)  returns 0xA000 (0583ms, 65040ms total)
T43F0 5126:980 JLINK_SetResetType(JLINKARM_CM3_RESET_TYPE_NORMAL)  returns JLINKARM_CM3_RESET_TYPE_NORMAL (0000ms, 65040ms total)
T43F0 5126:980 JLINK_Reset() -- CPU_ReadMem(16 bytes @ 0x20000000) -- CPU_WriteMem(16 bytes @ 0x20000000) -- CPU_ReadMem(4 bytes @ 0xE000EDFC) -- CPU_WriteMem(4 bytes @ 0xE000EDFC) -- CPU_ReadMem(4 bytes @ 0xE0001000) -- CPU_WriteMem(4 bytes @ 0xE000EDFC) -- CPU_WriteMem(16 bytes @ 0x20000000) -- CPU_WriteMem(4 bytes @ 0xE0002000) -- CPU_ReadMem(4 bytes @ 0xE000EDFC) -- CPU_ReadMem(4 bytes @ 0xE0001000) (0026ms, 65066ms total)
T7198 5127:110 JLINK_Halt()  returns 0x00 (0000ms, 65066ms total)
T7198 5127:110 JLINK_ReadReg(R15 (PC))  returns 0x00402A5C (0000ms, 65066ms total)
T7198 5127:110 JLINK_ReadReg(R13 (SP))  returns 0x20010228 (0000ms, 65066ms total)
T7198 5127:115 JLINK_ReadMemHW(0x00402A5C, 0x0004 Bytes, ...) -- CPU_ReadMem(4 bytes @ 0x00402A5C) - Data: 80 B5 84 B0  returns 0x00 (0000ms, 65066ms total)
T7198 5127:116 JLINK_ReadReg(R0)  returns 0x400E1400 (0000ms, 65066ms total)
T7198 5127:116 JLINK_ReadReg(R1)  returns 0x40C00000 (0000ms, 65066ms total)
T7198 5127:116 JLINK_ReadReg(R2)  returns 0xA5000005 (0000ms, 65066ms total)
T7198 5127:116 JLINK_ReadReg(R3)  returns 0x20000A58 (0000ms, 65066ms total)
T7198 5127:116 JLINK_ReadReg(R4)  returns 0x00000000 (0000ms, 65066ms total)
T7198 5127:116 JLINK_ReadReg(R5)  returns 0xCB41AEAF (0000ms, 65066ms total)
T7198 5127:116 JLINK_ReadReg(R6)  returns 0x00000002 (0000ms, 65066ms total)
T7198 5127:116 JLINK_ReadReg(R7)  returns 0x20010190 (0000ms, 65066ms total)
T7198 5127:116 JLINK_ReadReg(R8)  returns 0x20000001 (0000ms, 65066ms total)
T7198 5127:116 JLINK_ReadReg(R9)  returns 0x49886488 (0000ms, 65066ms total)
T7198 5127:116 JLINK_ReadReg(R10)  returns 0x20000004 (0000ms, 65066ms total)
T7198 5127:116 JLINK_ReadReg(R11)  returns 0x00000001 (0000ms, 65066ms total)
T7198 5127:116 JLINK_ReadReg(R12)  returns 0x00001146 (0000ms, 65066ms total)
T7198 5127:116 JLINK_ReadReg(R13 (SP))  returns 0x20010228 (0000ms, 65066ms total)
T7198 5127:116 JLINK_ReadReg(R14)  returns 0xFFFFFFFF (0000ms, 65066ms total)
T7198 5127:116 JLINK_ReadReg(R15 (PC))  returns 0x00402A5C (0000ms, 65066ms total)
T7198 5127:116 JLINK_ReadReg(XPSR)  returns 0x01000000 (0000ms, 65066ms total)
T7198 5127:116 JLINK_ReadReg(MSP)  returns 0x20010228 (0000ms, 65066ms total)
T7198 5127:116 JLINK_ReadReg(PSP)  returns 0x24DC7618 (0000ms, 65066ms total)
T7198 5127:116 JLINK_ReadReg(PRIMASK)  returns 0x00000000 (0000ms, 65066ms total)
T7198 5127:116 JLINK_ReadReg(BASEPRI)  returns 0x00000000 (0000ms, 65066ms total)
T7198 5127:116 JLINK_ReadReg(FAULTMASK)  returns 0x00000000 (0000ms, 65066ms total)
T7198 5127:116 JLINK_ReadReg(CONTROL)  returns 0x00000000 (0000ms, 65066ms total)
T7198 5127:117 JLINK_ReadMemHW(0x00402A5C, 0x0002 Bytes, ...) -- CPU_ReadMem(2 bytes @ 0x00402A5C) - Data: 80 B5  returns 0x00 (0000ms, 65066ms total)
T7198 5127:190 JLINK_ReadReg(R0)  returns 0x400E1400 (0000ms, 65066ms total)
T7198 5127:190 JLINK_ReadReg(R1)  returns 0x40C00000 (0000ms, 65066ms total)
T7198 5127:190 JLINK_ReadReg(R2)  returns 0xA5000005 (0000ms, 65066ms total)
T7198 5127:190 JLINK_ReadReg(R3)  returns 0x20000A58 (0000ms, 65066ms total)
T7198 5127:190 JLINK_ReadReg(R4)  returns 0x00000000 (0000ms, 65066ms total)
T7198 5127:190 JLINK_ReadReg(R5)  returns 0xCB41AEAF (0000ms, 65066ms total)
T7198 5127:190 JLINK_ReadReg(R6)  returns 0x00000002 (0000ms, 65066ms total)
T7198 5127:190 JLINK_ReadReg(R7)  returns 0x20010190 (0000ms, 65066ms total)
T7198 5127:190 JLINK_ReadReg(R8)  returns 0x20000001 (0000ms, 65066ms total)
T7198 5127:190 JLINK_ReadReg(R9)  returns 0x49886488 (0000ms, 65066ms total)
T7198 5127:190 JLINK_ReadReg(R10)  returns 0x20000004 (0000ms, 65066ms total)
T7198 5127:190 JLINK_ReadReg(R11)  returns 0x00000001 (0000ms, 65066ms total)
T7198 5127:190 JLINK_ReadReg(R12)  returns 0x00001146 (0000ms, 65066ms total)
T7198 5127:190 JLINK_ReadReg(R13 (SP))  returns 0x20010228 (0000ms, 65066ms total)
T7198 5127:190 JLINK_ReadReg(R14)  returns 0xFFFFFFFF (0000ms, 65066ms total)
T7198 5127:190 JLINK_ReadReg(R15 (PC))  returns 0x00402A5C (0000ms, 65066ms total)
T7198 5127:190 JLINK_ReadReg(XPSR)  returns 0x01000000 (0000ms, 65066ms total)
T7198 5127:190 JLINK_ReadReg(MSP)  returns 0x20010228 (0000ms, 65066ms total)
T7198 5127:190 JLINK_ReadReg(PSP)  returns 0x24DC7618 (0000ms, 65066ms total)
T7198 5127:190 JLINK_ReadReg(PRIMASK)  returns 0x00000000 (0000ms, 65066ms total)
T7198 5127:190 JLINK_ReadReg(BASEPRI)  returns 0x00000000 (0000ms, 65066ms total)
T7198 5127:190 JLINK_ReadReg(FAULTMASK)  returns 0x00000000 (0000ms, 65066ms total)
T7198 5127:190 JLINK_ReadReg(CONTROL)  returns 0x00000000 (0000ms, 65066ms total)
T3E9C 5127:192 JLINK_IsHalted()  returns TRUE (0000ms, 65066ms total)
T7198 5127:196 JLINK_ReadMemHW(0x00402A5C, 0x0004 Bytes, ...) -- CPU_ReadMem(4 bytes @ 0x00402A5C) - Data: 80 B5 84 B0  returns 0x00 (0000ms, 65066ms total)
T7198 5127:219 JLINK_ReadMemHW(0x00402F14, 0x0002 Bytes, ...) -- CPU_ReadMem(2 bytes @ 0x00402F14) - Data: 9B 4B  returns 0x00 (0000ms, 65067ms total)
T7198 5127:220 JLINK_ReadMemHW(0x00403184, 0x0004 Bytes, ...) -- CPU_ReadMem(4 bytes @ 0x00403184) - Data: 21 04 40 00  returns 0x00 (0000ms, 65067ms total)
T7198 5127:220 JLINK_ReadMemHW(0x00403304, 0x0002 Bytes, ...) -- CPU_ReadMem(2 bytes @ 0x00403304) - Data: 05 21  returns 0x00 (0001ms, 65068ms total)
T43F0 5127:237 JLINK_GetNumBPUnits(Type = 0xFFFFFF02)  returns 0x06 (0000ms, 65068ms total)
T43F0 5127:237 JLINK_SetBPEx(Addr = 0x00403304, Type = 0xFFFFFFF2)  returns 0x00000001 (0000ms, 65068ms total)
T43F0 5127:237 JLINK_GetBPInfo(BPHandle = 1)  returns 0x00 (0000ms, 65068ms total)
T7198 5127:254 JLINK_ReadMemHW(0x00402F14, 0x0002 Bytes, ...) -- CPU_ReadMem(2 bytes @ 0x00402F14) - Data: 9B 4B  returns 0x00 (0001ms, 65069ms total)
T7198 5127:255 JLINK_ReadMemHW(0x00403184, 0x0004 Bytes, ...) -- CPU_ReadMem(4 bytes @ 0x00403184) - Data: 21 04 40 00  returns 0x00 (0000ms, 65069ms total)
T7198 5127:256 JLINK_ReadMemHW(0x0040307A, 0x0002 Bytes, ...) -- CPU_ReadMem(2 bytes @ 0x0040307A) - Data: 52 4B  returns 0x00 (0000ms, 65069ms total)
T43F0 5127:258 JLINK_SetBPEx(Addr = 0x0040307A, Type = 0xFFFFFFF2)  returns 0x00000002 (0000ms, 65069ms total)
T43F0 5127:258 JLINK_GetBPInfo(BPHandle = 2)  returns 0x00 (0000ms, 65069ms total)
T7198 5127:308 JLINK_ReadMemHW(0x004020AC, 0x0002 Bytes, ...) -- CPU_ReadMem(2 bytes @ 0x004020AC) - Data: 01 23  returns 0x00 (0000ms, 65069ms total)
T7198 5127:309 JLINK_ReadMemHW(0x004020E4, 0x0002 Bytes, ...) -- CPU_ReadMem(2 bytes @ 0x004020E4) - Data: 00 23  returns 0x00 (0000ms, 65069ms total)
T43F0 5127:311 JLINK_SetBPEx(Addr = 0x004020E4, Type = 0xFFFFFFF2)  returns 0x00000003 (0000ms, 65069ms total)
T43F0 5127:311 JLINK_GetBPInfo(BPHandle = 3)  returns 0x00 (0000ms, 65069ms total)
T7198 5127:333 JLINK_ReadMemHW(0x004020AC, 0x0002 Bytes, ...) -- CPU_ReadMem(2 bytes @ 0x004020AC) - Data: 01 23  returns 0x00 (0000ms, 65069ms total)
T7198 5127:334 JLINK_ReadMemHW(0x004020F0, 0x0002 Bytes, ...) -- CPU_ReadMem(2 bytes @ 0x004020F0) - Data: 7B 6A  returns 0x00 (0000ms, 65069ms total)
T43F0 5127:336 JLINK_SetBPEx(Addr = 0x004020F0, Type = 0xFFFFFFF2)  returns 0x00000004 (0000ms, 65069ms total)
T43F0 5127:336 JLINK_GetBPInfo(BPHandle = 4)  returns 0x00 (0000ms, 65069ms total)
T7198 5127:379 JLINK_ReadMemHW(0x00402F14, 0x0002 Bytes, ...) -- CPU_ReadMem(2 bytes @ 0x00402F14) - Data: 9B 4B  returns 0x00 (0000ms, 65069ms total)
T7198 5127:380 JLINK_ReadMemHW(0x00403184, 0x0004 Bytes, ...) -- CPU_ReadMem(4 bytes @ 0x00403184) - Data: 21 04 40 00  returns 0x00 (0000ms, 65069ms total)
T7198 5127:380 JLINK_ReadMemHW(0x00403032, 0x0002 Bytes, ...) -- CPU_ReadMem(2 bytes @ 0x00403032) - Data: 02 21  returns 0x00 (0001ms, 65070ms total)
T43F0 5127:382 JLINK_SetBPEx(Addr = 0x00403032, Type = 0xFFFFFFF2)  returns 0x00000005 (0000ms, 65070ms total)
T43F0 5127:382 JLINK_GetBPInfo(BPHandle = 5)  returns 0x00 (0000ms, 65070ms total)
T3E9C 5127:393 JLINK_IsHalted()  returns TRUE (0000ms, 65070ms total)
T7198 5127:414 JLINK_SetResetType(JLINKARM_CM3_RESET_TYPE_NORMAL)  returns JLINKARM_CM3_RESET_TYPE_NORMAL (0000ms, 65070ms total)
T7198 5127:414 JLINK_Reset() -- CPU_ReadMem(16 bytes @ 0x20000000) -- CPU_WriteMem(16 bytes @ 0x20000000) -- CPU_ReadMem(4 bytes @ 0xE000EDFC) -- CPU_WriteMem(4 bytes @ 0xE000EDFC) -- CPU_ReadMem(4 bytes @ 0xE0001000) -- CPU_WriteMem(4 bytes @ 0xE0001004) -- CPU_WriteMem(4 bytes @ 0xE000EDFC) -- CPU_WriteMem(16 bytes @ 0x20000000) -- CPU_WriteMem(4 bytes @ 0xE0002000) -- CPU_ReadMem(4 bytes @ 0xE000EDFC) -- CPU_ReadMem(4 bytes @ 0xE0001000) (0023ms, 65093ms total)
T3E9C 5127:437 JLINK_IsHalted()  returns TRUE (0000ms, 65093ms total)
T3E9C 5127:437 JLINK_GetMOEs(...) -- CPU_ReadMem(4 bytes @ 0xE000ED30)  returns 0x01 (0000ms, 65093ms total)
T3E9C 5127:437 JLINK_ReadReg(R15 (PC))  returns 0x00402A5C (0000ms, 65093ms total)
T7198 5127:447 JLINK_ReadReg(R15 (PC))  returns 0x00402A5C (0000ms, 65093ms total)
T7198 5127:447 JLINK_ReadReg(R13 (SP))  returns 0x20010228 (0000ms, 65093ms total)
T7198 5127:447 JLINK_ReadMemHW(0x00402A5C, 0x0004 Bytes, ...) -- CPU_ReadMem(4 bytes @ 0x00402A5C) - Data: 80 B5 84 B0  returns 0x00 (0000ms, 65093ms total)
T7198 5127:565 JLINK_ReadMemHW(0x00402F0C, 0x0001 Bytes, ...) -- CPU_ReadMem(1 bytes @ 0x00402F0C) - Data: 2D  returns 0x00 (0001ms, 65094ms total)
T7198 5127:590 JLINK_ReadReg(R15 (PC))  returns 0x00402A5C (0000ms, 65094ms total)
T7198 5127:590 JLINK_SetBPEx(Addr = 0x00402F0C, Type = 0xF2)  returns 0x00000006 (0000ms, 65094ms total)
T7198 5127:590 JLINK_GetBPInfo(BPHandle = 6)  returns 0x80000000 (0000ms, 65094ms total)
T7198 5127:591 JLINK_Go() -- Read from flash cache (2 bytes @ 0x00402A5C) -- CPU_ReadMem(4 bytes @ 0xE000ED18) -- CPU_WriteMem(4 bytes @ 0xE000ED18) -- CPU_ReadMem(4 bytes @ 0xE000ED18) -- CPU_WriteMem(4 bytes @ 0xE000ED18) -- CPU_WriteMem(8 bytes @ 0x20010220) -- Simulated -- Read from flash cache (2 bytes @ 0x00402A5E) -- Simulated -- Read from flash cache (2 bytes @ 0x00402A60) -- Simulated -- Read from flash cache (2 bytes @ 0x00402A62) -- Read from flash cache (4 bytes @ 0x00402B00) -- Simulated
 -- Read from flash cache (2 bytes @ 0x00402A64) -- CPU_WriteMem(4 bytes @ 0x2001021C) -- Simulated -- Read from flash cache (2 bytes @ 0x00402A66) -- Read from flash cache (4 bytes @ 0x00402B04) -- Simulated -- Read from flash cache (2 bytes @ 0x00402A68) -- CPU_WriteMem(4 bytes @ 0x20010218) -- Simulated -- Read from flash cache (2 bytes @ 0x00402A6A) -- CPU_ReadMem(64 bytes @ 0x20010200) -- Updating C cache (64 bytes @ 0x20010200) -- Read from C cache (4 bytes @ 0x2001021C) -- Simulated
 -- Read from flash cache (2 bytes @ 0x00402A6C) -- Read from C cache (4 bytes @ 0x20010218) -- Simulated -- Read from flash cache (2 bytes @ 0x00402A6E) -- Simulated -- CPU_ReadMem(4 bytes @ 0xE000ED90) -- CPU_ReadMem(4 bytes @ 0xE000ED94) -- Start of preparing flash programming -- Calculating RAM usage -- RAM usage = 5972 Bytes -- Preserving CPU registers -- Preparing memory -- Preparing target -- Preserving target RAM temporarily used for programming -- Downloading RAMCode
 -- Not first flash download, checking target RAM skipped -- Preparing RAMCode -- End of preparing flash programming -- Read from flash cache (512 bytes @ 0x00402E00) -- Programming range 0x00402E00 - 0x00402FFF (  1 Sector, 512 Bytes) -- Start of restoring -- Restoring RAMCode -- Restoring target memory -- Restore target -- Restore memory -- Restoring CPU registers -- End of restoring -- CPU_WriteMem(4 bytes @ 0xE0002000) -- CPU_WriteMem(4 bytes @ 0xE0002000) -- CPU_WriteMem(4 bytes @ 0xE0002000)
 -- CPU_WriteMem(4 bytes @ 0xE0002000) -- CPU_WriteMem(4 bytes @ 0xE0002000) -- CPU_ReadMem(4 bytes @ 0xE0001000) -- CPU_WriteMem(4 bytes @ 0xE0002008) -- CPU_WriteMem(4 bytes @ 0xE000200C) -- CPU_WriteMem(4 bytes @ 0xE0002010) -- CPU_WriteMem(4 bytes @ 0xE0002014) -- CPU_WriteMem(4 bytes @ 0xE0002018) -- CPU_WriteMem(4 bytes @ 0xE000201C) (0345ms, 65439ms total)
T3E9C 5127:936 JLINK_IsHalted()  returns FALSE (0000ms, 65439ms total)
T3E9C 5127:959 JLINK_IsHalted()  returns FALSE (0000ms, 65439ms total)
T3E9C 5128:040 JLINK_IsHalted()  returns TRUE (0002ms, 65441ms total)
T3E9C 5128:042 JLINK_GetMOEs(...) -- CPU_ReadMem(4 bytes @ 0xE000ED30)  returns 0x01 (0000ms, 65439ms total)
T3E9C 5128:042 JLINK_ReadReg(R15 (PC))  returns 0x00402F0C (0000ms, 65439ms total)
T7198 5128:050 JLINK_ReadReg(R15 (PC))  returns 0x00402F0C (0000ms, 65439ms total)
T7198 5128:050 JLINK_ReadReg(R13 (SP))  returns 0x20010210 (0000ms, 65439ms total)
T7198 5128:050 JLINK_ReadMemHW(0x00402F0C, 0x0004 Bytes, ...) -- CPU_ReadMem(4 bytes @ 0x00402F0C) - Data: 00 BE F0 4F  returns 0x00 (0000ms, 65439ms total)
T7198 5128:085 JLINK_WriteU32(0xE000EDFC, 0x01000000) -- CPU_WriteMem(4 bytes @ 0xE000EDFC)  returns 0 (0001ms, 65440ms total)
T7198 5128:086 JLINK_ReadMem (0xE0001000, 0x0004 Bytes, ...) -- CPU_ReadMem(4 bytes @ 0xE0001000) - Data: 01 00 00 40  returns 0x00 (0001ms, 65441ms total)
T7198 5128:087 JLINK_WriteU32(0xE0001000, 0x40000001)  returns 0 (0000ms, 65441ms total)
T7198 5128:087 JLINK_WriteU32(0xE0001028, 0x00000100)  returns 0 (0000ms, 65441ms total)
T7198 5128:087 JLINK_ReadMem (0xE0001028, 0x0004 Bytes, ...) -- CPU_WriteMem(4 bytes @ 0xE0001028) -- CPU_ReadMem(4 bytes @ 0xE0001028) - Data: 00 00 00 00  returns 0x00 (0001ms, 65442ms total)
T7198 5128:088 JLINK_WriteU32(0xE0001024, 0x0000001F)  returns 0 (0000ms, 65442ms total)
T7198 5128:088 JLINK_ReadMem (0xE0001024, 0x0004 Bytes, ...) -- CPU_WriteMem(4 bytes @ 0xE0001024) -- CPU_ReadMem(4 bytes @ 0xE0001024) - Data: 0F 00 00 00  returns 0x00 (0001ms, 65443ms total)
T7198 5128:089 JLINK_WriteU32(0xE0001038, 0x00000100)  returns 0 (0000ms, 65443ms total)
T7198 5128:089 JLINK_ReadMem (0xE0001038, 0x0004 Bytes, ...) -- CPU_WriteMem(4 bytes @ 0xE0001038) -- CPU_ReadMem(4 bytes @ 0xE0001038) - Data: 00 03 00 00  returns 0x00 (0001ms, 65444ms total)
T7198 5128:090 JLINK_WriteU32(0xE0001034, 0x0000001F)  returns 0 (0000ms, 65444ms total)
T7198 5128:090 JLINK_ReadMem (0xE0001034, 0x0004 Bytes, ...) -- CPU_WriteMem(4 bytes @ 0xE0001034) -- CPU_ReadMem(4 bytes @ 0xE0001034) - Data: 0F 00 00 00  returns 0x00 (0001ms, 65445ms total)
T7198 5128:091 JLINK_WriteU32(0xE0001048, 0x00000100)  returns 0 (0001ms, 65446ms total)
T7198 5128:092 JLINK_ReadMem (0xE0001048, 0x0004 Bytes, ...) -- CPU_WriteMem(4 bytes @ 0xE0001048) -- CPU_ReadMem(4 bytes @ 0xE0001048) - Data: 00 00 00 00  returns 0x00 (0001ms, 65447ms total)
T7198 5128:093 JLINK_WriteU32(0xE0001044, 0x0000001F)  returns 0 (0000ms, 65447ms total)
T7198 5128:093 JLINK_ReadMem (0xE0001044, 0x0004 Bytes, ...) -- CPU_WriteMem(4 bytes @ 0xE0001044) -- CPU_ReadMem(4 bytes @ 0xE0001044) - Data: 0F 00 00 00  returns 0x00 (0001ms, 65448ms total)
T7198 5128:094 JLINK_WriteU32(0xE0001058, 0x00000100)  returns 0 (0000ms, 65448ms total)
T7198 5128:094 JLINK_ReadMem (0xE0001058, 0x0004 Bytes, ...) -- CPU_WriteMem(4 bytes @ 0xE0001058) -- CPU_ReadMem(4 bytes @ 0xE0001058) - Data: 00 00 00 00  returns 0x00 (0001ms, 65449ms total)
T7198 5128:095 JLINK_WriteU32(0xE0001054, 0x0000001F)  returns 0 (0000ms, 65449ms total)
T7198 5128:095 JLINK_ReadMem (0xE0001054, 0x0004 Bytes, ...) -- CPU_WriteMem(4 bytes @ 0xE0001054) -- CPU_ReadMem(4 bytes @ 0xE0001054) - Data: 0F 00 00 00  returns 0x00 (0001ms, 65450ms total)
T7198 5128:096 JLINK_WriteU32(0xE0001020, 0x00000000)  returns 0 (0000ms, 65450ms total)
T7198 5128:096 JLINK_WriteU32(0xE0001024, 0x00000000)  returns 0 (0000ms, 65450ms total)
T7198 5128:096 JLINK_WriteU32(0xE0001028, 0x00000000)  returns 0 (0000ms, 65450ms total)
T7198 5128:096 JLINK_WriteU32(0xE0001030, 0x00000000)  returns 0 (0000ms, 65450ms total)
T7198 5128:096 JLINK_WriteU32(0xE0001034, 0x00000000)  returns 0 (0000ms, 65450ms total)
T7198 5128:097 JLINK_WriteU32(0xE0001038, 0x00000000)  returns 0 (0000ms, 65450ms total)
T7198 5128:097 JLINK_WriteU32(0xE0001040, 0x00000000)  returns 0 (0000ms, 65450ms total)
T7198 5128:097 JLINK_WriteU32(0xE0001044, 0x00000000)  returns 0 (0000ms, 65450ms total)
T7198 5128:097 JLINK_WriteU32(0xE0001048, 0x00000000)  returns 0 (0000ms, 65450ms total)
T7198 5128:097 JLINK_WriteU32(0xE0001050, 0x00000000)  returns 0 (0000ms, 65450ms total)
T7198 5128:097 JLINK_WriteU32(0xE0001054, 0x00000000)  returns 0 (0000ms, 65450ms total)
T7198 5128:097 JLINK_WriteU32(0xE0001058, 0x00000000)  returns 0 (0000ms, 65450ms total)
T7198 5128:097 JLINK_GetBPInfo(BPHandle = 6)  returns 0x80000000 (0000ms, 65450ms total)
T7198 5128:097 JLINK_ClrBPEx(BPHandle = 0x00000006)  returns 0x00 (0000ms, 65450ms total)
T7198 5128:097 JLINK_ReadReg(R15 (PC))  returns 0x00402F0C (0000ms, 65450ms total)
T7198 5128:097 JLINK_Go() -- Merging zombie BP[5]: 0xE92D @ 0x00402F0C -- Merging zombie BP[5]: 0xE92D @ 0x00402F0C -- CPU_ReadMem(4 bytes @ 0xE0001004) -- Read from flash cache (2 bytes @ 0x00402F0E) -- Not simulated -- CPU_ReadMem(4 bytes @ 0xE000ED90) -- CPU_ReadMem(4 bytes @ 0xE000ED94) -- Start of preparing flash programming -- Calculating RAM usage -- RAM usage = 5972 Bytes -- Preserving CPU registers -- Preparing memory -- Preparing target -- Preserving target RAM temporarily used for programming
 -- Downloading RAMCode -- Not first flash download, checking target RAM skipped -- Preparing RAMCode -- End of preparing flash programming -- Read from flash cache (512 bytes @ 0x00402E00) -- Programming range 0x00402E00 - 0x00402FFF (  1 Sector, 512 Bytes) -- Start of restoring -- Restoring RAMCode -- Restoring target memory -- Restore target -- Restore memory -- Restoring CPU registers -- End of restoring -- CPU_WriteMem(4 bytes @ 0xE0002000) -- CPU_WriteMem(4 bytes @ 0xE0002000)
 -- CPU_WriteMem(4 bytes @ 0xE0002000) -- CPU_WriteMem(4 bytes @ 0xE0002000) -- CPU_WriteMem(4 bytes @ 0xE0002000) -- CPU_ReadMem(4 bytes @ 0xE0001000) (0349ms, 65799ms total)
T3E9C 5128:447 JLINK_IsHalted()  returns FALSE (0000ms, 65799ms total)
T3E9C 5128:489 JLINK_IsHalted()  returns FALSE (0000ms, 65799ms total)
T3E9C 5128:650 JLINK_IsHalted()  returns TRUE (0003ms, 65802ms total)
T3E9C 5128:654 JLINK_GetMOEs(...) -- CPU_ReadMem(4 bytes @ 0xE000ED30)  returns 0x01 (0000ms, 65799ms total)
T3E9C 5128:654 JLINK_ReadReg(R15 (PC))  returns 0x004020E4 (0000ms, 65799ms total)
T7198 5128:659 JLINK_ReadReg(R15 (PC))  returns 0x004020E4 (0000ms, 65799ms total)
T7198 5128:659 JLINK_ReadReg(R13 (SP))  returns 0x20010148 (0000ms, 65799ms total)
T7198 5128:659 JLINK_ReadMemHW(0x004020E4, 0x0004 Bytes, ...) -- CPU_ReadMem(4 bytes @ 0x004020E4) - Data: 00 23 7B 62  returns 0x00 (0001ms, 65800ms total)
T7198 5128:660 JLINK_ReadReg(R0)  returns 0x00000005 (0000ms, 65800ms total)
T7198 5128:660 JLINK_ReadReg(R1)  returns 0x00000001 (0000ms, 65800ms total)
T7198 5128:660 JLINK_ReadReg(R2)  returns 0x00000001 (0000ms, 65800ms total)
T7198 5128:660 JLINK_ReadReg(R3)  returns 0x00000005 (0000ms, 65800ms total)
T7198 5128:660 JLINK_ReadReg(R4)  returns 0x00000000 (0000ms, 65800ms total)
T7198 5128:660 JLINK_ReadReg(R5)  returns 0xCB41AEAF (0000ms, 65800ms total)
T7198 5128:660 JLINK_ReadReg(R6)  returns 0x00000002 (0000ms, 65800ms total)
T7198 5128:660 JLINK_ReadReg(R7)  returns 0x20010148 (0000ms, 65800ms total)
T7198 5128:660 JLINK_ReadReg(R8)  returns 0x20000001 (0000ms, 65800ms total)
T7198 5128:660 JLINK_ReadReg(R9)  returns 0x49886488 (0000ms, 65800ms total)
T7198 5128:660 JLINK_ReadReg(R10)  returns 0x20000004 (0000ms, 65800ms total)
T7198 5128:660 JLINK_ReadReg(R11)  returns 0x00000001 (0000ms, 65800ms total)
T7198 5128:660 JLINK_ReadReg(R12)  returns 0x00001146 (0000ms, 65800ms total)
T7198 5128:660 JLINK_ReadReg(R13 (SP))  returns 0x20010148 (0000ms, 65800ms total)
T7198 5128:660 JLINK_ReadReg(R14)  returns 0x0040133D (0000ms, 65800ms total)
T7198 5128:660 JLINK_ReadReg(R15 (PC))  returns 0x004020E4 (0000ms, 65800ms total)
T7198 5128:660 JLINK_ReadReg(XPSR)  returns 0x01000000 (0000ms, 65800ms total)
T7198 5128:660 JLINK_ReadReg(MSP)  returns 0x20010148 (0000ms, 65800ms total)
T7198 5128:660 JLINK_ReadReg(PSP)  returns 0x24DC7618 (0000ms, 65800ms total)
T7198 5128:660 JLINK_ReadReg(PRIMASK)  returns 0x00000000 (0000ms, 65800ms total)
T7198 5128:660 JLINK_ReadReg(BASEPRI)  returns 0x00000000 (0000ms, 65800ms total)
T7198 5128:660 JLINK_ReadReg(FAULTMASK)  returns 0x00000000 (0000ms, 65800ms total)
T7198 5128:660 JLINK_ReadReg(CONTROL)  returns 0x00000000 (0000ms, 65800ms total)
T7198 5128:662 JLINK_ReadMem (0x20010140, 0x0040 Bytes, ...) -- CPU_ReadMem(64 bytes @ 0x20010140) -- Updating C cache (64 bytes @ 0x20010140) -- Read from C cache (64 bytes @ 0x20010140) - Data: 48 01 01 20 E5 20 40 00 00 00 00 80 00 80 01 40 ...  returns 0x00 (0001ms, 65801ms total)
T3E9C 5128:855 JLINK_IsHalted()  returns TRUE (0000ms, 65801ms total)
T7198 5128:920 JLINK_ReadMemHW(0x00401B52, 0x0004 Bytes, ...) -- CPU_ReadMem(4 bytes @ 0x00401B52) - Data: 03 46 01 2B  returns 0x00 (0000ms, 65801ms total)
T7198 5128:922 JLINK_ReadMem (0x20010180, 0x0040 Bytes, ...) -- CPU_ReadMem(64 bytes @ 0x20010180) -- Updating C cache (64 bytes @ 0x20010180) -- Read from C cache (64 bytes @ 0x20010180) - Data: AF AE 41 CB 02 00 00 00 A0 01 01 20 01 00 00 20 ...  returns 0x00 (0001ms, 65802ms total)
T7198 5128:923 JLINK_ReadMemHW(0x00402FA2, 0x0004 Bytes, ...) -- CPU_ReadMem(4 bytes @ 0x00402FA2) - Data: 02 21 85 48  returns 0x00 (0001ms, 65803ms total)
T3E9C 5129:056 JLINK_IsHalted()  returns TRUE (0000ms, 65803ms total)
T3E9C 5129:257 JLINK_IsHalted()  returns TRUE (0000ms, 65803ms total)
T3E9C 5129:457 JLINK_IsHalted()  returns TRUE (0000ms, 65803ms total)
T3E9C 5129:657 JLINK_IsHalted()  returns TRUE (0000ms, 65803ms total)
T3E9C 5129:858 JLINK_IsHalted()  returns TRUE (0000ms, 65803ms total)
T3E9C 5130:058 JLINK_IsHalted()  returns TRUE (0000ms, 65803ms total)
T3E9C 5130:259 JLINK_IsHalted()  returns TRUE (0000ms, 65803ms total)
T3E9C 5130:462 JLINK_IsHalted()  returns TRUE (0000ms, 65803ms total)
T3E9C 5130:663 JLINK_IsHalted()  returns TRUE (0000ms, 65803ms total)
T3E9C 5130:863 JLINK_IsHalted()  returns TRUE (0000ms, 65803ms total)
T3E9C 5131:064 JLINK_IsHalted()  returns TRUE (0000ms, 65803ms total)
T3E9C 5131:267 JLINK_IsHalted()  returns TRUE (0000ms, 65803ms total)
T3E9C 5131:468 JLINK_IsHalted()  returns TRUE (0000ms, 65803ms total)
T7198 5131:609 JLINK_ReadReg(R15 (PC))  returns 0x004020E4 (0001ms, 65804ms total)
T7198 5131:610 JLINK_GetBPInfo(BPHandle = 3)  returns 0x00 (0000ms, 65804ms total)
T7198 5131:610 JLINK_ClrBPEx(BPHandle = 0x00000003)  returns 0x00 (0000ms, 65804ms total)
T7198 5131:610 JLINK_Step() -- Read from flash cache (2 bytes @ 0x004020E4) -- CPU_ReadMem(4 bytes @ 0xE0001004) -- Simulated  returns 0x00 (0000ms, 65804ms total)
T7198 5131:610 JLINK_SetBPEx(Addr = 0x004020E4, Type = 0xFFFFFFF2)  returns 0x00000007 (0000ms, 65804ms total)
T7198 5131:610 JLINK_GetBPInfo(BPHandle = 7)  returns 0x00 (0000ms, 65804ms total)
T7198 5131:610 JLINK_Go() -- CPU_WriteMem(4 bytes @ 0xE0002000) -- CPU_WriteMem(4 bytes @ 0xE0002000) -- CPU_WriteMem(4 bytes @ 0xE0002000) -- CPU_WriteMem(4 bytes @ 0xE0002000) -- CPU_WriteMem(4 bytes @ 0xE0002000) -- CPU_ReadMem(4 bytes @ 0xE0001000) -- CPU_WriteMem(4 bytes @ 0xE000ED30) -- CPU_WriteMem(4 bytes @ 0xE0002010) -- CPU_WriteMem(4 bytes @ 0xE0002014) -- CPU_WriteMem(4 bytes @ 0xE0002018) -- CPU_WriteMem(4 bytes @ 0xE0001004) (0005ms, 65809ms total)
T3E9C 5131:615 JLINK_IsHalted()  returns TRUE (0003ms, 65812ms total)
T3E9C 5131:618 JLINK_GetMOEs(...) -- CPU_ReadMem(4 bytes @ 0xE000ED30)  returns 0x01 (0000ms, 65809ms total)
T3E9C 5131:618 JLINK_ReadReg(R15 (PC))  returns 0x004020F0 (0000ms, 65809ms total)
T7198 5131:625 JLINK_ReadReg(R15 (PC))  returns 0x004020F0 (0000ms, 65809ms total)
T7198 5131:625 JLINK_ReadReg(R13 (SP))  returns 0x20010148 (0000ms, 65809ms total)
T7198 5131:625 JLINK_ReadMemHW(0x004020F0, 0x0004 Bytes, ...) -- CPU_ReadMem(4 bytes @ 0x004020F0) - Data: 7B 6A 1B 0A  returns 0x00 (0000ms, 65809ms total)
T7198 5131:626 JLINK_ReadReg(R0)  returns 0x00000000 (0000ms, 65809ms total)
T7198 5131:626 JLINK_ReadReg(R1)  returns 0x00000001 (0000ms, 65809ms total)
T7198 5131:626 JLINK_ReadReg(R2)  returns 0x00000000 (0000ms, 65809ms total)
T7198 5131:626 JLINK_ReadReg(R3)  returns 0x00000000 (0000ms, 65809ms total)
T7198 5131:626 JLINK_ReadReg(R4)  returns 0x00000000 (0000ms, 65809ms total)
T7198 5131:626 JLINK_ReadReg(R5)  returns 0xCB41AEAF (0000ms, 65809ms total)
T7198 5131:626 JLINK_ReadReg(R6)  returns 0x00000002 (0000ms, 65809ms total)
T7198 5131:626 JLINK_ReadReg(R7)  returns 0x20010148 (0000ms, 65809ms total)
T7198 5131:626 JLINK_ReadReg(R8)  returns 0x20000001 (0000ms, 65809ms total)
T7198 5131:626 JLINK_ReadReg(R9)  returns 0x49886488 (0000ms, 65809ms total)
T7198 5131:626 JLINK_ReadReg(R10)  returns 0x20000004 (0000ms, 65809ms total)
T7198 5131:626 JLINK_ReadReg(R11)  returns 0x00000001 (0000ms, 65809ms total)
T7198 5131:626 JLINK_ReadReg(R12)  returns 0x00001146 (0000ms, 65809ms total)
T7198 5131:626 JLINK_ReadReg(R13 (SP))  returns 0x20010148 (0000ms, 65809ms total)
T7198 5131:626 JLINK_ReadReg(R14)  returns 0x0040123F (0000ms, 65809ms total)
T7198 5131:626 JLINK_ReadReg(R15 (PC))  returns 0x004020F0 (0000ms, 65809ms total)
T7198 5131:626 JLINK_ReadReg(XPSR)  returns 0x01000000 (0000ms, 65809ms total)
T7198 5131:626 JLINK_ReadReg(MSP)  returns 0x20010148 (0000ms, 65809ms total)
T7198 5131:626 JLINK_ReadReg(PSP)  returns 0x24DC7618 (0000ms, 65809ms total)
T7198 5131:626 JLINK_ReadReg(PRIMASK)  returns 0x00000000 (0000ms, 65809ms total)
T7198 5131:626 JLINK_ReadReg(BASEPRI)  returns 0x00000000 (0000ms, 65809ms total)
T7198 5131:626 JLINK_ReadReg(FAULTMASK)  returns 0x00000000 (0000ms, 65809ms total)
T7198 5131:626 JLINK_ReadReg(CONTROL)  returns 0x00000000 (0000ms, 65809ms total)
T7198 5131:628 JLINK_ReadMem (0x20010140, 0x0040 Bytes, ...) -- CPU_ReadMem(64 bytes @ 0x20010140) -- Updating C cache (64 bytes @ 0x20010140) -- Read from C cache (64 bytes @ 0x20010140) - Data: 48 01 01 20 EF 20 40 00 00 00 00 80 00 80 01 40 ...  returns 0x00 (0002ms, 65811ms total)
T7198 5131:716 JLINK_ReadMemHW(0x00401B52, 0x0004 Bytes, ...) -- CPU_ReadMem(4 bytes @ 0x00401B52) - Data: 03 46 01 2B  returns 0x00 (0000ms, 65811ms total)
T7198 5131:717 JLINK_ReadMem (0x20010180, 0x0040 Bytes, ...) -- CPU_ReadMem(64 bytes @ 0x20010180) -- Updating C cache (64 bytes @ 0x20010180) -- Read from C cache (64 bytes @ 0x20010180) - Data: AF AE 41 CB 02 00 00 00 A0 01 01 20 01 00 00 20 ...  returns 0x00 (0002ms, 65813ms total)
T7198 5131:719 JLINK_ReadMemHW(0x00402FA2, 0x0004 Bytes, ...) -- CPU_ReadMem(4 bytes @ 0x00402FA2) - Data: 02 21 85 48  returns 0x00 (0001ms, 65814ms total)
T3E9C 5131:820 JLINK_IsHalted()  returns TRUE (0000ms, 65814ms total)
T7198 5131:828 JLINK_ReadReg(R15 (PC))  returns 0x004020F0 (0000ms, 65814ms total)
T7198 5131:828 JLINK_GetBPInfo(BPHandle = 4)  returns 0x00 (0000ms, 65814ms total)
T7198 5131:828 JLINK_ClrBPEx(BPHandle = 0x00000004)  returns 0x00 (0000ms, 65814ms total)
T7198 5131:829 JLINK_Step() -- Read from flash cache (2 bytes @ 0x004020F0) -- CPU_ReadMem(4 bytes @ 0xE0001004) -- Read from C cache (4 bytes @ 0x2001016C) -- Simulated  returns 0x00 (0001ms, 65815ms total)
T7198 5131:830 JLINK_SetBPEx(Addr = 0x004020F0, Type = 0xFFFFFFF2)  returns 0x00000008 (0000ms, 65815ms total)
T7198 5131:830 JLINK_GetBPInfo(BPHandle = 8)  returns 0x00 (0000ms, 65815ms total)
T7198 5131:830 JLINK_Go() -- CPU_WriteMem(4 bytes @ 0xE0002000) -- CPU_WriteMem(4 bytes @ 0xE0002000) -- CPU_WriteMem(4 bytes @ 0xE0002000) -- CPU_WriteMem(4 bytes @ 0xE0002000) -- CPU_WriteMem(4 bytes @ 0xE0002000) -- CPU_ReadMem(4 bytes @ 0xE0001000) -- CPU_WriteMem(4 bytes @ 0xE000ED30) -- CPU_WriteMem(4 bytes @ 0xE0002010) -- CPU_WriteMem(4 bytes @ 0xE0002014) -- CPU_WriteMem(4 bytes @ 0xE0002018) -- CPU_WriteMem(4 bytes @ 0xE0001004) (0008ms, 65823ms total)
T3E9C 5131:838 JLINK_IsHalted()  returns TRUE (0003ms, 65826ms total)
T3E9C 5131:841 JLINK_GetMOEs(...) -- CPU_ReadMem(4 bytes @ 0xE000ED30)  returns 0x01 (0001ms, 65824ms total)
T3E9C 5131:842 JLINK_ReadReg(R15 (PC))  returns 0x004020E4 (0000ms, 65824ms total)
T7198 5131:849 JLINK_ReadReg(R15 (PC))  returns 0x004020E4 (0000ms, 65824ms total)
T7198 5131:849 JLINK_ReadReg(R13 (SP))  returns 0x20010148 (0000ms, 65824ms total)
T7198 5131:849 JLINK_ReadMemHW(0x004020E4, 0x0004 Bytes, ...) -- CPU_ReadMem(4 bytes @ 0x004020E4) - Data: 00 23 7B 62  returns 0x00 (0001ms, 65825ms total)
T7198 5131:850 JLINK_ReadReg(R0)  returns 0x00000005 (0000ms, 65825ms total)
T7198 5131:850 JLINK_ReadReg(R1)  returns 0x00000001 (0000ms, 65825ms total)
T7198 5131:850 JLINK_ReadReg(R2)  returns 0x00000001 (0001ms, 65826ms total)
T7198 5131:851 JLINK_ReadReg(R3)  returns 0x00000005 (0000ms, 65826ms total)
T7198 5131:851 JLINK_ReadReg(R4)  returns 0x00000000 (0000ms, 65826ms total)
T7198 5131:851 JLINK_ReadReg(R5)  returns 0xCB41AEAF (0000ms, 65826ms total)
T7198 5131:851 JLINK_ReadReg(R6)  returns 0x00000002 (0000ms, 65826ms total)
T7198 5131:851 JLINK_ReadReg(R7)  returns 0x20010148 (0000ms, 65826ms total)
T7198 5131:851 JLINK_ReadReg(R8)  returns 0x20000001 (0000ms, 65826ms total)
T7198 5131:851 JLINK_ReadReg(R9)  returns 0x49886488 (0000ms, 65826ms total)
T7198 5131:851 JLINK_ReadReg(R10)  returns 0x20000004 (0000ms, 65826ms total)
T7198 5131:851 JLINK_ReadReg(R11)  returns 0x00000001 (0000ms, 65826ms total)
T7198 5131:851 JLINK_ReadReg(R12)  returns 0x00001146 (0000ms, 65826ms total)
T7198 5131:851 JLINK_ReadReg(R13 (SP))  returns 0x20010148 (0000ms, 65826ms total)
T7198 5131:851 JLINK_ReadReg(R14)  returns 0x0040133D (0000ms, 65826ms total)
T7198 5131:851 JLINK_ReadReg(R15 (PC))  returns 0x004020E4 (0000ms, 65826ms total)
T7198 5131:851 JLINK_ReadReg(XPSR)  returns 0x01000000 (0000ms, 65826ms total)
T7198 5131:851 JLINK_ReadReg(MSP)  returns 0x20010148 (0001ms, 65827ms total)
T7198 5131:852 JLINK_ReadReg(PSP)  returns 0x24DC7618 (0000ms, 65827ms total)
T7198 5131:852 JLINK_ReadReg(PRIMASK)  returns 0x00000000 (0000ms, 65827ms total)
T7198 5131:852 JLINK_ReadReg(BASEPRI)  returns 0x00000000 (0000ms, 65827ms total)
T7198 5131:852 JLINK_ReadReg(FAULTMASK)  returns 0x00000000 (0000ms, 65827ms total)
T7198 5131:852 JLINK_ReadReg(CONTROL)  returns 0x00000000 (0000ms, 65827ms total)
T7198 5131:854 JLINK_ReadMem (0x20010140, 0x0040 Bytes, ...) -- CPU_ReadMem(64 bytes @ 0x20010140) -- Updating C cache (64 bytes @ 0x20010140) -- Read from C cache (64 bytes @ 0x20010140) - Data: 48 01 01 20 E5 20 40 00 00 00 00 80 00 80 01 40 ...  returns 0x00 (0001ms, 65828ms total)
T7198 5131:921 JLINK_ReadMemHW(0x00401B52, 0x0004 Bytes, ...) -- CPU_ReadMem(4 bytes @ 0x00401B52) - Data: 03 46 01 2B  returns 0x00 (0000ms, 65828ms total)
T7198 5131:922 JLINK_ReadMem (0x20010180, 0x0040 Bytes, ...) -- CPU_ReadMem(64 bytes @ 0x20010180) -- Updating C cache (64 bytes @ 0x20010180) -- Read from C cache (64 bytes @ 0x20010180) - Data: AF AE 41 CB 02 00 00 00 A0 01 01 20 01 00 00 20 ...  returns 0x00 (0000ms, 65828ms total)
T7198 5131:923 JLINK_ReadMemHW(0x00402FA2, 0x0004 Bytes, ...) -- CPU_ReadMem(4 bytes @ 0x00402FA2) - Data: 02 21 85 48  returns 0x00 (0000ms, 65828ms total)
T3E9C 5132:042 JLINK_IsHalted()  returns TRUE (0000ms, 65828ms total)
T3E9C 5132:243 JLINK_IsHalted()  returns TRUE (0000ms, 65828ms total)
T3E9C 5132:445 JLINK_IsHalted()  returns TRUE (0000ms, 65828ms total)
T3E9C 5132:645 JLINK_IsHalted()  returns TRUE (0000ms, 65828ms total)
T7198 5132:650 JLINK_ReadReg(R15 (PC))  returns 0x004020E4 (0000ms, 65828ms total)
T7198 5132:650 JLINK_GetBPInfo(BPHandle = 7)  returns 0x00 (0000ms, 65828ms total)
T7198 5132:650 JLINK_ClrBPEx(BPHandle = 0x00000007)  returns 0x00 (0000ms, 65828ms total)
T7198 5132:650 JLINK_Step() -- Read from flash cache (2 bytes @ 0x004020E4) -- CPU_ReadMem(4 bytes @ 0xE0001004) -- Simulated  returns 0x00 (0001ms, 65829ms total)
T7198 5132:651 JLINK_SetBPEx(Addr = 0x004020E4, Type = 0xFFFFFFF2)  returns 0x00000009 (0000ms, 65829ms total)
T7198 5132:651 JLINK_GetBPInfo(BPHandle = 9)  returns 0x00 (0000ms, 65829ms total)
T7198 5132:651 JLINK_Go() -- CPU_WriteMem(4 bytes @ 0xE0002000) -- CPU_WriteMem(4 bytes @ 0xE0002000) -- CPU_WriteMem(4 bytes @ 0xE0002000) -- CPU_WriteMem(4 bytes @ 0xE0002000) -- CPU_WriteMem(4 bytes @ 0xE0002000) -- CPU_ReadMem(4 bytes @ 0xE0001000) -- CPU_WriteMem(4 bytes @ 0xE000ED30) -- CPU_WriteMem(4 bytes @ 0xE0002014) -- CPU_WriteMem(4 bytes @ 0xE0002018) -- CPU_WriteMem(4 bytes @ 0xE0001004) (0004ms, 65833ms total)
T3E9C 5132:655 JLINK_IsHalted()  returns TRUE (0003ms, 65836ms total)
T3E9C 5132:658 JLINK_GetMOEs(...) -- CPU_ReadMem(4 bytes @ 0xE000ED30)  returns 0x01 (0000ms, 65833ms total)
T3E9C 5132:658 JLINK_ReadReg(R15 (PC))  returns 0x004020F0 (0000ms, 65833ms total)
T7198 5132:666 JLINK_ReadReg(R15 (PC))  returns 0x004020F0 (0000ms, 65833ms total)
T7198 5132:666 JLINK_ReadReg(R13 (SP))  returns 0x20010148 (0000ms, 65833ms total)
T7198 5132:666 JLINK_ReadMemHW(0x004020F0, 0x0004 Bytes, ...) -- CPU_ReadMem(4 bytes @ 0x004020F0) - Data: 7B 6A 1B 0A  returns 0x00 (0001ms, 65834ms total)
T7198 5132:668 JLINK_ReadReg(R0)  returns 0x00000000 (0000ms, 65834ms total)
T7198 5132:668 JLINK_ReadReg(R1)  returns 0x00000001 (0000ms, 65834ms total)
T7198 5132:669 JLINK_ReadReg(R2)  returns 0x00000000 (0000ms, 65834ms total)
T7198 5132:669 JLINK_ReadReg(R3)  returns 0x00000000 (0000ms, 65834ms total)
T7198 5132:669 JLINK_ReadReg(R4)  returns 0x00000000 (0000ms, 65834ms total)
T7198 5132:669 JLINK_ReadReg(R5)  returns 0xCB41AEAF (0000ms, 65834ms total)
T7198 5132:669 JLINK_ReadReg(R6)  returns 0x00000002 (0000ms, 65834ms total)
T7198 5132:669 JLINK_ReadReg(R7)  returns 0x20010148 (0000ms, 65834ms total)
T7198 5132:669 JLINK_ReadReg(R8)  returns 0x20000001 (0000ms, 65834ms total)
T7198 5132:669 JLINK_ReadReg(R9)  returns 0x49886488 (0000ms, 65834ms total)
T7198 5132:669 JLINK_ReadReg(R10)  returns 0x20000004 (0000ms, 65834ms total)
T7198 5132:671 JLINK_ReadReg(R11)  returns 0x00000001 (0000ms, 65834ms total)
T7198 5132:671 JLINK_ReadReg(R12)  returns 0x00001146 (0000ms, 65834ms total)
T7198 5132:671 JLINK_ReadReg(R13 (SP))  returns 0x20010148 (0000ms, 65834ms total)
T7198 5132:671 JLINK_ReadReg(R14)  returns 0x0040123F (0000ms, 65834ms total)
T7198 5132:671 JLINK_ReadReg(R15 (PC))  returns 0x004020F0 (0000ms, 65834ms total)
T7198 5132:671 JLINK_ReadReg(XPSR)  returns 0x01000000 (0000ms, 65834ms total)
T7198 5132:671 JLINK_ReadReg(MSP)  returns 0x20010148 (0000ms, 65834ms total)
T7198 5132:671 JLINK_ReadReg(PSP)  returns 0x24DC7618 (0000ms, 65834ms total)
T7198 5132:671 JLINK_ReadReg(PRIMASK)  returns 0x00000000 (0000ms, 65834ms total)
T7198 5132:671 JLINK_ReadReg(BASEPRI)  returns 0x00000000 (0000ms, 65834ms total)
T7198 5132:671 JLINK_ReadReg(FAULTMASK)  returns 0x00000000 (0000ms, 65834ms total)
T7198 5132:671 JLINK_ReadReg(CONTROL)  returns 0x00000000 (0000ms, 65834ms total)
T7198 5132:677 JLINK_ReadMem (0x20010140, 0x0040 Bytes, ...) -- CPU_ReadMem(64 bytes @ 0x20010140) -- Updating C cache (64 bytes @ 0x20010140) -- Read from C cache (64 bytes @ 0x20010140) - Data: 48 01 01 20 EF 20 40 00 00 00 00 80 00 80 01 40 ...  returns 0x00 (0002ms, 65836ms total)
T7198 5132:749 JLINK_ReadMemHW(0x00401B52, 0x0004 Bytes, ...) -- CPU_ReadMem(4 bytes @ 0x00401B52) - Data: 03 46 01 2B  returns 0x00 (0000ms, 65836ms total)
T7198 5132:751 JLINK_ReadMem (0x20010180, 0x0040 Bytes, ...) -- CPU_ReadMem(64 bytes @ 0x20010180) -- Updating C cache (64 bytes @ 0x20010180) -- Read from C cache (64 bytes @ 0x20010180) - Data: AF AE 41 CB 02 00 00 00 A0 01 01 20 01 00 00 20 ...  returns 0x00 (0001ms, 65837ms total)
T7198 5132:752 JLINK_ReadMemHW(0x00402FA2, 0x0004 Bytes, ...) -- CPU_ReadMem(4 bytes @ 0x00402FA2) - Data: 02 21 85 48  returns 0x00 (0000ms, 65837ms total)
T3E9C 5132:859 JLINK_IsHalted()  returns TRUE (0000ms, 65837ms total)
T7198 5132:925 JLINK_ReadReg(R15 (PC))  returns 0x004020F0 (0000ms, 65837ms total)
T7198 5132:925 JLINK_GetBPInfo(BPHandle = 8)  returns 0x00 (0000ms, 65837ms total)
T7198 5132:925 JLINK_ClrBPEx(BPHandle = 0x00000008)  returns 0x00 (0000ms, 65837ms total)
T7198 5132:925 JLINK_Step() -- Read from flash cache (2 bytes @ 0x004020F0) -- CPU_ReadMem(4 bytes @ 0xE0001004) -- Read from C cache (4 bytes @ 0x2001016C) -- Simulated  returns 0x00 (0001ms, 65838ms total)
T7198 5132:926 JLINK_SetBPEx(Addr = 0x004020F0, Type = 0xFFFFFFF2)  returns 0x0000000A (0000ms, 65838ms total)
T7198 5132:926 JLINK_GetBPInfo(BPHandle = 10)  returns 0x00 (0000ms, 65838ms total)
T7198 5132:926 JLINK_Go() -- CPU_WriteMem(4 bytes @ 0xE0002000) -- CPU_WriteMem(4 bytes @ 0xE0002000) -- CPU_WriteMem(4 bytes @ 0xE0002000) -- CPU_WriteMem(4 bytes @ 0xE0002000) -- CPU_WriteMem(4 bytes @ 0xE0002000) -- CPU_ReadMem(4 bytes @ 0xE0001000) -- CPU_WriteMem(4 bytes @ 0xE000ED30) -- CPU_WriteMem(4 bytes @ 0xE0002014) -- CPU_WriteMem(4 bytes @ 0xE0002018) -- CPU_WriteMem(4 bytes @ 0xE0001004) (0005ms, 65843ms total)
T3E9C 5132:931 JLINK_IsHalted()  returns TRUE (0003ms, 65846ms total)
T3E9C 5132:934 JLINK_GetMOEs(...) -- CPU_ReadMem(4 bytes @ 0xE000ED30)  returns 0x01 (0000ms, 65843ms total)
T3E9C 5132:934 JLINK_ReadReg(R15 (PC))  returns 0x004020E4 (0000ms, 65843ms total)
T7198 5132:942 JLINK_ReadReg(R15 (PC))  returns 0x004020E4 (0000ms, 65843ms total)
T7198 5132:942 JLINK_ReadReg(R13 (SP))  returns 0x20010148 (0000ms, 65843ms total)
T7198 5132:942 JLINK_ReadMemHW(0x004020E4, 0x0004 Bytes, ...) -- CPU_ReadMem(4 bytes @ 0x004020E4) - Data: 00 23 7B 62  returns 0x00 (0001ms, 65844ms total)
T7198 5132:943 JLINK_ReadReg(R0)  returns 0x00000005 (0000ms, 65844ms total)
T7198 5132:943 JLINK_ReadReg(R1)  returns 0x00000001 (0000ms, 65844ms total)
T7198 5132:943 JLINK_ReadReg(R2)  returns 0x00000001 (0000ms, 65844ms total)
T7198 5132:943 JLINK_ReadReg(R3)  returns 0x00000005 (0000ms, 65844ms total)
T7198 5132:943 JLINK_ReadReg(R4)  returns 0x00000000 (0000ms, 65844ms total)
T7198 5132:943 JLINK_ReadReg(R5)  returns 0xCB41AEAF (0000ms, 65844ms total)
T7198 5132:943 JLINK_ReadReg(R6)  returns 0x00000002 (0000ms, 65844ms total)
T7198 5132:943 JLINK_ReadReg(R7)  returns 0x20010148 (0000ms, 65844ms total)
T7198 5132:943 JLINK_ReadReg(R8)  returns 0x20000001 (0000ms, 65844ms total)
T7198 5132:943 JLINK_ReadReg(R9)  returns 0x49886488 (0000ms, 65844ms total)
T7198 5132:943 JLINK_ReadReg(R10)  returns 0x20000004 (0000ms, 65844ms total)
T7198 5132:943 JLINK_ReadReg(R11)  returns 0x00000001 (0000ms, 65844ms total)
T7198 5132:943 JLINK_ReadReg(R12)  returns 0x00001146 (0000ms, 65844ms total)
T7198 5132:943 JLINK_ReadReg(R13 (SP))  returns 0x20010148 (0000ms, 65844ms total)
T7198 5132:943 JLINK_ReadReg(R14)  returns 0x0040133D (0000ms, 65844ms total)
T7198 5132:943 JLINK_ReadReg(R15 (PC))  returns 0x004020E4 (0000ms, 65844ms total)
T7198 5132:943 JLINK_ReadReg(XPSR)  returns 0x01000000 (0000ms, 65844ms total)
T7198 5132:943 JLINK_ReadReg(MSP)  returns 0x20010148 (0000ms, 65844ms total)
T7198 5132:943 JLINK_ReadReg(PSP)  returns 0x24DC7618 (0000ms, 65844ms total)
T7198 5132:943 JLINK_ReadReg(PRIMASK)  returns 0x00000000 (0000ms, 65844ms total)
T7198 5132:943 JLINK_ReadReg(BASEPRI)  returns 0x00000000 (0000ms, 65844ms total)
T7198 5132:943 JLINK_ReadReg(FAULTMASK)  returns 0x00000000 (0000ms, 65844ms total)
T7198 5132:943 JLINK_ReadReg(CONTROL)  returns 0x00000000 (0000ms, 65844ms total)
T7198 5132:945 JLINK_ReadMem (0x20010140, 0x0040 Bytes, ...) -- CPU_ReadMem(64 bytes @ 0x20010140) -- Updating C cache (64 bytes @ 0x20010140) -- Read from C cache (64 bytes @ 0x20010140) - Data: 48 01 01 20 E5 20 40 00 00 00 00 80 00 80 01 40 ...  returns 0x00 (0001ms, 65845ms total)
T7198 5133:011 JLINK_ReadMemHW(0x00401B52, 0x0004 Bytes, ...) -- CPU_ReadMem(4 bytes @ 0x00401B52) - Data: 03 46 01 2B  returns 0x00 (0001ms, 65846ms total)
T7198 5133:013 JLINK_ReadMem (0x20010180, 0x0040 Bytes, ...) -- CPU_ReadMem(64 bytes @ 0x20010180) -- Updating C cache (64 bytes @ 0x20010180) -- Read from C cache (64 bytes @ 0x20010180) - Data: AF AE 41 CB 02 00 00 00 A0 01 01 20 01 00 00 20 ...  returns 0x00 (0001ms, 65847ms total)
T7198 5133:014 JLINK_ReadMemHW(0x00402FA2, 0x0004 Bytes, ...) -- CPU_ReadMem(4 bytes @ 0x00402FA2) - Data: 02 21 85 48  returns 0x00 (0001ms, 65848ms total)
T3E9C 5133:136 JLINK_IsHalted()  returns TRUE (0000ms, 65848ms total)
T7198 5133:164 JLINK_ReadReg(R15 (PC))  returns 0x004020E4 (0000ms, 65848ms total)
T7198 5133:164 JLINK_GetBPInfo(BPHandle = 9)  returns 0x00 (0000ms, 65848ms total)
T7198 5133:164 JLINK_ClrBPEx(BPHandle = 0x00000009)  returns 0x00 (0001ms, 65849ms total)
T7198 5133:165 JLINK_Step() -- Read from flash cache (2 bytes @ 0x004020E4) -- CPU_ReadMem(4 bytes @ 0xE0001004) -- Simulated  returns 0x00 (0000ms, 65849ms total)
T7198 5133:165 JLINK_SetBPEx(Addr = 0x004020E4, Type = 0xFFFFFFF2)  returns 0x0000000B (0000ms, 65849ms total)
T7198 5133:165 JLINK_GetBPInfo(BPHandle = 11)  returns 0x00 (0000ms, 65849ms total)
T7198 5133:165 JLINK_Go() -- CPU_WriteMem(4 bytes @ 0xE0002000) -- CPU_WriteMem(4 bytes @ 0xE0002000) -- CPU_WriteMem(4 bytes @ 0xE0002000) -- CPU_WriteMem(4 bytes @ 0xE0002000) -- CPU_WriteMem(4 bytes @ 0xE0002000) -- CPU_ReadMem(4 bytes @ 0xE0001000) -- CPU_WriteMem(4 bytes @ 0xE000ED30) -- CPU_WriteMem(4 bytes @ 0xE0002014) -- CPU_WriteMem(4 bytes @ 0xE0002018) -- CPU_WriteMem(4 bytes @ 0xE0001004) (0005ms, 65854ms total)
T3E9C 5133:170 JLINK_IsHalted()  returns TRUE (0003ms, 65857ms total)
T3E9C 5133:173 JLINK_GetMOEs(...) -- CPU_ReadMem(4 bytes @ 0xE000ED30)  returns 0x01 (0000ms, 65854ms total)
T3E9C 5133:173 JLINK_ReadReg(R15 (PC))  returns 0x004020F0 (0000ms, 65854ms total)
T7198 5133:180 JLINK_ReadReg(R15 (PC))  returns 0x004020F0 (0000ms, 65854ms total)
T7198 5133:180 JLINK_ReadReg(R13 (SP))  returns 0x20010148 (0000ms, 65854ms total)
T7198 5133:180 JLINK_ReadMemHW(0x004020F0, 0x0004 Bytes, ...) -- CPU_ReadMem(4 bytes @ 0x004020F0) - Data: 7B 6A 1B 0A  returns 0x00 (0000ms, 65854ms total)
T7198 5133:181 JLINK_ReadReg(R0)  returns 0x00000000 (0000ms, 65854ms total)
T7198 5133:181 JLINK_ReadReg(R1)  returns 0x00000001 (0000ms, 65854ms total)
T7198 5133:181 JLINK_ReadReg(R2)  returns 0x00000000 (0000ms, 65854ms total)
T7198 5133:181 JLINK_ReadReg(R3)  returns 0x00000000 (0000ms, 65854ms total)
T7198 5133:181 JLINK_ReadReg(R4)  returns 0x00000000 (0000ms, 65854ms total)
T7198 5133:181 JLINK_ReadReg(R5)  returns 0xCB41AEAF (0000ms, 65854ms total)
T7198 5133:181 JLINK_ReadReg(R6)  returns 0x00000002 (0000ms, 65854ms total)
T7198 5133:181 JLINK_ReadReg(R7)  returns 0x20010148 (0000ms, 65854ms total)
T7198 5133:181 JLINK_ReadReg(R8)  returns 0x20000001 (0000ms, 65854ms total)
T7198 5133:181 JLINK_ReadReg(R9)  returns 0x49886488 (0000ms, 65854ms total)
T7198 5133:181 JLINK_ReadReg(R10)  returns 0x20000004 (0000ms, 65854ms total)
